[103000] DMA/MMU AXI SELF-CHECKING TEST START
[103000] Programming 4 KiB software page table
[637000] D01: memory -> memory, BURST mode
[1134000] M2M DATA: memory input -> memory output
[1134000]   WORD[0] IN  VA=0x1000 DATA=0xa5000000 | OUT VA=0x2000 DATA=0xa5000000 | MATCH
[1134000]   WORD[1] IN  VA=0x1004 DATA=0xa5000001 | OUT VA=0x2004 DATA=0xa5000001 | MATCH
[1134000]   WORD[2] IN  VA=0x1008 DATA=0xa5000002 | OUT VA=0x2008 DATA=0xa5000002 | MATCH
[1134000]   WORD[3] IN  VA=0x100c DATA=0xa5000003 | OUT VA=0x200c DATA=0xa5000003 | MATCH
[1134000]   WORD[4] IN  VA=0x1010 DATA=0xa5000004 | OUT VA=0x2010 DATA=0xa5000004 | MATCH
[1134000]   WORD[5] IN  VA=0x1014 DATA=0xa5000005 | OUT VA=0x2014 DATA=0xa5000005 | MATCH
[1134000]   WORD[6] IN  VA=0x1018 DATA=0xa5000006 | OUT VA=0x2018 DATA=0xa5000006 | MATCH
[1134000]   WORD[7] IN  VA=0x101c DATA=0xa5000007 | OUT VA=0x201c DATA=0xa5000007 | MATCH
[1134000] PASS M2M: AR transactions=1 AW transactions=1 max ARLEN=7 max AWLEN=7
[1134000] D05: peripheral -> memory, CYCLE-STEALING mode
[2247000] S2M DATA: AXI-Stream peripheral input -> memory output
[2247000]   WORD[0] IN  S_AXIS DATA=0xd1000000 | OUT VA=0x3000 DATA=0xd1000000 | MATCH
[2247000]   WORD[1] IN  S_AXIS DATA=0xd1000001 | OUT VA=0x3004 DATA=0xd1000001 | MATCH
[2247000]   WORD[2] IN  S_AXIS DATA=0xd1000002 | OUT VA=0x3008 DATA=0xd1000002 | MATCH
[2247000]   WORD[3] IN  S_AXIS DATA=0xd1000003 | OUT VA=0x300c DATA=0xd1000003 | MATCH
[2247000]   WORD[4] IN  S_AXIS DATA=0xd1000004 | OUT VA=0x3010 DATA=0xd1000004 | MATCH
[2247000]   WORD[5] IN  S_AXIS DATA=0xd1000005 | OUT VA=0x3014 DATA=0xd1000005 | MATCH
[2247000]   WORD[6] IN  S_AXIS DATA=0xd1000006 | OUT VA=0x3018 DATA=0xd1000006 | MATCH
[2247000]   WORD[7] IN  S_AXIS DATA=0xd1000007 | OUT VA=0x301c DATA=0xd1000007 | MATCH
[2247000] PASS S2M: 8 independent one-beat writes with release gaps
[2247000] D09: memory -> peripheral, TRANSPARENT mode
[3287000] M2S DATA: memory input -> AXI-Stream peripheral output
[3287000]   WORD[0] IN  VA=0x1000 DATA=0xa5000000 | OUT M_AXIS DATA=0xa5000000 TLAST=0 | MATCH
[3287000]   WORD[1] IN  VA=0x1004 DATA=0xa5000001 | OUT M_AXIS DATA=0xa5000001 TLAST=0 | MATCH
[3287000]   WORD[2] IN  VA=0x1008 DATA=0xa5000002 | OUT M_AXIS DATA=0xa5000002 TLAST=0 | MATCH
[3287000]   WORD[3] IN  VA=0x100c DATA=0xa5000003 | OUT M_AXIS DATA=0xa5000003 TLAST=0 | MATCH
[3287000]   WORD[4] IN  VA=0x1010 DATA=0xa5000004 | OUT M_AXIS DATA=0xa5000004 TLAST=0 | MATCH
[3287000]   WORD[5] IN  VA=0x1014 DATA=0xa5000005 | OUT M_AXIS DATA=0xa5000005 TLAST=0 | MATCH
[3287000]   WORD[6] IN  VA=0x1018 DATA=0xa5000006 | OUT M_AXIS DATA=0xa5000006 TLAST=0 | MATCH
[3287000]   WORD[7] IN  VA=0x101c DATA=0xa5000007 | OUT M_AXIS DATA=0xa5000007 TLAST=1 | MATCH
[3287000] PASS M2S: beats=8 TLAST=1 CPU-busy wait cycles=29 AR transactions=8
[3287000] D02: memory -> memory, CYCLE-STEALING mode
[4801000] D03: memory -> memory, TRANSPARENT mode
[6281000] D04: peripheral -> memory, BURST mode
[6728000] D06: peripheral -> memory, TRANSPARENT mode
[7862000] D07: memory -> peripheral, BURST mode
[8302000] D08: memory -> peripheral, CYCLE-STEALING mode
[9382000] E01: IOMMU denies write to read-only page
[9659000] IOMMU I/O: IN request=S2M WRITE dst_VA=0x4000 length=4 | OUT allow=0 fault=0x32
[9659000] PASS IOMMU: write permission fault code 0x32
[9659000] E02-E05: unmapped, read permission, and 4 KiB boundary checks
[11306000] E07: TLB miss/hit/invalidate/pseudo-LRU replacement
[12312000] E08-E10: AXI READY delay and stream backpressure
[13519000] E11-E12: injected AXI SLVERR/DECERR propagation
[14240000] E13-E18: special lengths, alignment, and multiple bursts
[16453000] E19: a new start command is ignored while DMA is busy
[16813000] Q01: eight-entry descriptor FIFO and queued scatter-gather
[21654000] Q02: stop-on-error preserves descriptors after a fault
[23081000] A01-A04: hybrid CPU-authorized and peripheral-autonomous DMA access
[24548000] A03 request snapshot: status=0x0001ff11 irq=1 AR=55/55 AW=55/55 RAM=0x00000000
[25195000] E20: reset while DMA is actively waiting for peripheral data
[25548000] ALL DMA/MMU AXI TESTS PASSED
